
T46A4 000:022 SEGGER J-Link V4.62 Log File (0001ms, 0023ms total)
T46A4 000:022 DLL Compiled: Jan 25 2013 15:19:47 (0001ms, 0023ms total)
T46A4 000:022 Logging started @ 2016-08-10 11:33 (0001ms, 0023ms total)
T46A4 000:023 JLINK_SetWarnOutHandler(...) (0000ms, 0023ms total)
T46A4 000:023 JLINK_OpenEx(...)
Firmware: J-Link ARM V8 compiled Nov 25 2013 19:20:08
Hardware: V8.00
S/N: 17935099
Feature(s): RDI,FlashDL,FlashBP,JFlash  returns O.K. (0008ms, 0031ms total)
T46A4 000:031 JLINK_SetErrorOutHandler(...) (0000ms, 0031ms total)
T46A4 000:031 JLINK_ExecCommand("ProjectFile = "C:\Users\xier5\Desktop\空调联动控制器8.8\USER\JLinkSettings.ini"", ...)  returns 0x00 (0000ms, 0031ms total)
T46A4 000:035 JLINK_ExecCommand("Device = STM32F407VE", ...)
                JLINK_ExecCommand("map ram 0x20000000 - 0x2001FFFF", ...)  returns 0x00 (0000ms, 0000ms total)
                JLINK_AddMirrorAreaEx(Addr = 0x00000000, Size = 0x00000000) (0000ms, 0000ms total)
              Device "STM32F407VE" selected (512 KB flash, 128 KB RAM).  returns 0x00 (0005ms, 0036ms total)
T46A4 000:040 JLINK_ExecCommand("DisableConnectionTimeout", ...)  returns 0x00 (0000ms, 0036ms total)
T46A4 000:040 JLINK_TIF_Select(JLINKARM_TIF_SWD)  returns 0x00 (0001ms, 0037ms total)
T46A4 000:041 JLINK_SetSpeed(500) (0000ms, 0037ms total)
T46A4 000:041 JLINK_GetHardwareVersion()  returns 0x13880 (0000ms, 0037ms total)
T46A4 000:041 JLINK_GetDLLVersion()  returns 46200 (0000ms, 0037ms total)
T46A4 000:041 JLINK_GetFirmwareString(...) (0000ms, 0037ms total)
T46A4 000:049 JLINK_GetDLLVersion()  returns 46200 (0000ms, 0037ms total)
T46A4 000:049 JLINK_GetCompileDateTime() (0000ms, 0037ms total)
T46A4 000:052 JLINK_GetFirmwareString(...) (0000ms, 0037ms total)
T46A4 000:054 JLINK_GetHardwareVersion()  returns 0x13880 (0000ms, 0037ms total)
T46A4 000:061 JLINK_GetId() >0x108 TIF>Found SWD-DP with ID 0x2BA01477 >0x0D TIF> >0x28 TIF> >0x0D TIF> >0x28 TIF> >0x0D TIF> >0x21 TIF> >0x0D TIF> >0x28 TIF> >0x0D TIF> >0x28 TIF> >0x0D TIF> >0x28 TIF> >0x0D TIF> >0x21 TIF> >0x0D TIF> >0x21 TIF> >0x0D TIF> >0x28 TIF> >0x0D TIF> >0x21 TIF> >0x0D TIF> >0x21 TIF> >0x0D TIF> >0x28 TIF> >0x0D TIF> >0x21 TIF> >0x0D TIF> >0x21 TIF> >0x108 TIF>Found SWD-DP with ID 0x2BA01477 >0x0D TIF> >0x21 TIF> >0x0D TIF> >0x28 TIF> >0x0D TIF> >0x28 TIF> >0x0D TIF> >0x21 TIF>
 >0x0D TIF> >0x21 TIF> >0x0D TIF> >0x28 TIF> >0x0D TIF> >0x21 TIF> >0x0D TIF> >0x21 TIF> >0x0D TIF> >0x21 TIF> >0x0D TIF> >0x21 TIF> >0x0D TIF> >0x21 TIF> >0x0D TIF> >0x28 TIF> >0x0D TIF> >0x28 TIF> >0x0D TIF> >0x21 TIF> >0x0D TIF> >0x21 TIF> >0x0D TIF> >0x28 TIF> >0x0D TIF> >0x21 TIF> >0x0D TIF> >0x21 TIF> >0x0D TIF> >0x28 TIF> >0x0D TIF> >0x28 TIF> >0x0D TIF> >0x28 TIF> >0x0D TIF> >0x21 TIF> >0x0D TIF> >0x21 TIF> >0x0D TIF> >0x28 TIF> >0x0D TIF> >0x28 TIF> >0x0D TIF> >0x28 TIF> >0x0D TIF> >0x21 TIF>
 >0x0D TIF> >0x21 TIF> >0x0D TIF> >0x21 TIF>TPIU fitted.ETM fitted. >0x0D TIF> >0x28 TIF> >0x0D TIF> >0x21 TIF> >0x0D TIF> >0x21 TIF> >0x0D TIF> >0x28 TIF> >0x0D TIF> >0x21 TIF> >0x0D TIF> >0x21 TIF>FPUnit: 6 code (BP) slots and 2 literal slots >0x0D TIF> >0x28 TIF> >0x0D TIF> >0x21 TIF> >0x0D TIF> >0x21 TIF> >0x0D TIF> >0x28 TIF> >0x0D TIF> >0x21 TIF> >0x0D TIF> >0x21 TIF> >0x0D TIF> >0x28 TIF> >0x0D TIF> >0x21 TIF> >0x0D TIF> >0x21 TIF> >0x0D TIF> >0x28 TIF> >0x0D TIF> >0x21 TIF> >0x0D TIF> >0x21 TIF>
Found Cortex-M4 r0p1, Little endian. >0x0D TIF> >0x21 TIF>  returns 0x2BA01477 (0049ms, 0086ms total)
T46A4 000:110 JLINK_GetDeviceFamily()  returns 14 (0000ms, 0086ms total)
T46A4 000:111 JLINK_ReadMem (0xE00FFFF0, 0x0010 Bytes, ...) -- CPU is running -- CPU_ReadMem(16 bytes @ 0xE00FFFF0) -- Data:  0D 00 00 00 10 00 00 00 05 00 00 00 B1 00 00 00  returns 0x00 (0003ms, 0089ms total)
T46A4 000:114 JLINK_ReadMem (0xE00FFFD0, 0x0020 Bytes, ...) -- CPU is running -- CPU_ReadMem(32 bytes @ 0xE00FFFD0) -- Data:  00 00 00 00 00 00 00 00 00 00 00 00 00 00 00 00 ...  returns 0x00 (0002ms, 0091ms total)
T46A4 000:116 JLINK_ReadMem (0xE00FF000, 0x0018 Bytes, ...) -- CPU is running -- CPU_ReadMem(24 bytes @ 0xE00FF000) -- Data:  03 F0 F0 FF 03 20 F0 FF 03 30 F0 FF 03 10 F0 FF ...  returns 0x00 (0003ms, 0094ms total)
T46A4 000:119 JLINK_ReadMemU32(0xE000ED00, 0x0001 Items, ...) -- CPU is running -- CPU_ReadMem(4 bytes @ 0xE000ED00) -- Data:  41 C2 0F 41  returns 0x01 (0001ms, 0095ms total)
T46A4 000:120 JLINK_ReadMemU32(0xE000EF40, 0x0001 Items, ...) -- CPU is running -- CPU_ReadMem(4 bytes @ 0xE000EF40) -- Data:  21 00 11 10  returns 0x01 (0002ms, 0097ms total)
T46A4 000:122 JLINK_ReadMemU32(0xE000EF44, 0x0001 Items, ...) -- CPU is running -- CPU_ReadMem(4 bytes @ 0xE000EF44) -- Data:  11 00 00 11  returns 0x01 (0001ms, 0098ms total)
T46A4 000:123 JLINK_SetResetType(JLINKARM_RESET_TYPE_NORMAL)  returns JLINKARM_RESET_TYPE_NORMAL (0000ms, 0098ms total)
T46A4 000:123 JLINK_Reset() -- CPU is running -- CPU_WriteMem(4 bytes @ 0xE000EDF0) -- CPU is running -- CPU_WriteMem(4 bytes @ 0xE000EDFC) >0x35 TIF> -- CPU is running -- CPU_WriteMem(4 bytes @ 0xE000ED0C) -- CPU is running -- CPU_ReadMem(4 bytes @ 0xE000EDF0) -- CPU is running -- CPU_ReadMem(4 bytes @ 0xE000EDF0) -- CPU is running -- CPU_WriteMem(4 bytes @ 0xE000EDF0) -- CPU is running -- CPU_WriteMem(4 bytes @ 0xE000EDFC) -- CPU is running -- CPU_ReadMem(4 bytes @ 0xE000EDF0)
 -- CPU_WriteMem(4 bytes @ 0xE0002000) (0039ms, 0137ms total)
T46A4 000:162 JLINK_Halt()  returns 0x00 (0000ms, 0137ms total)
T46A4 000:162 JLINK_IsHalted()  returns TRUE (0000ms, 0137ms total)
T46A4 000:162 JLINK_ReadMemU32(0xE000EDF0, 0x0001 Items, ...) -- CPU_ReadMem(4 bytes @ 0xE000EDF0) -- Data:  03 00 03 00  returns 0x01 (0002ms, 0139ms total)
T46A4 000:164 JLINK_WriteU32(0xE000EDF0, 0xA05F0003) -- CPU_WriteMem(4 bytes @ 0xE000EDF0)  returns 0x00 (0001ms, 0140ms total)
T46A4 000:165 JLINK_WriteU32(0xE000EDFC, 0x01000000) -- CPU_WriteMem(4 bytes @ 0xE000EDFC)  returns 0x00 (0001ms, 0141ms total)
T46A4 000:173 JLINK_GetHWStatus(...)  returns 0x00 (0000ms, 0141ms total)
T46A4 000:178 JLINK_GetNumBPUnits(Type = 0xFFFFFF00)  returns 0x06 (0000ms, 0141ms total)
T46A4 000:178 JLINK_GetNumBPUnits(Type = 0xF0)  returns 0x2000 (0000ms, 0141ms total)
T46A4 000:178 JLINK_GetNumWPUnits()  returns 0x04 (0000ms, 0141ms total)
T46A4 000:185 JLINK_GetSpeed()  returns 0x1F4 (0000ms, 0141ms total)
T46A4 000:188 JLINK_ReadMemU32(0xE000E004, 0x0001 Items, ...) -- CPU_ReadMem(4 bytes @ 0xE000E004) -- Data:  02 00 00 00  returns 0x01 (0002ms, 0143ms total)
T46A4 000:190 JLINK_ReadMemU32(0xE000E004, 0x0001 Items, ...) -- CPU_ReadMem(4 bytes @ 0xE000E004) -- Data:  02 00 00 00  returns 0x01 (0001ms, 0144ms total)
T46A4 000:191 JLINK_WriteMem(0xE0001000, 0x001C Bytes, ...) -- Data:  01 00 00 00 00 00 00 00 00 00 00 00 00 00 00 00 ... -- CPU_WriteMem(28 bytes @ 0xE0001000)  returns 0x1C (0002ms, 0146ms total)
T46A4 000:193 JLINK_ReadMem (0xE0001000, 0x001C Bytes, ...) -- CPU_ReadMem(28 bytes @ 0xE0001000) -- Data:  01 00 00 40 00 00 00 00 00 00 00 00 00 00 00 00 ...  returns 0x00 (0002ms, 0148ms total)
T46A4 000:195 JLINK_Halt()  returns 0x00 (0000ms, 0148ms total)
T46A4 000:195 JLINK_IsHalted()  returns TRUE (0000ms, 0148ms total)
T46A4 000:197 JLINK_WriteMem(0x20000000, 0x0180 Bytes, ...) -- Data:  00 BE 0A E0 0D 78 2D 06 68 40 08 24 40 00 00 D3 ... -- CPU_WriteMem(384 bytes @ 0x20000000)  returns 0x180 (0012ms, 0160ms total)
T46A4 000:209 JLINK_WriteReg(R0, 0x08000000)  returns 0x00 (0000ms, 0160ms total)
T46A4 000:209 JLINK_WriteReg(R1, 0x00F42400)  returns 0x00 (0000ms, 0160ms total)
T46A4 000:209 JLINK_WriteReg(R2, 0x00000001)  returns 0x00 (0000ms, 0160ms total)
T46A4 000:209 JLINK_WriteReg(R3, 0x00000000)  returns 0x00 (0000ms, 0160ms total)
T46A4 000:209 JLINK_WriteReg(R4, 0x00000000)  returns 0x00 (0000ms, 0160ms total)
T46A4 000:209 JLINK_WriteReg(R5, 0x00000000)  returns 0x00 (0000ms, 0160ms total)
T46A4 000:209 JLINK_WriteReg(R6, 0x00000000)  returns 0x00 (0000ms, 0160ms total)
T46A4 000:209 JLINK_WriteReg(R7, 0x00000000)  returns 0x00 (0000ms, 0160ms total)
T46A4 000:209 JLINK_WriteReg(R8, 0x00000000)  returns 0x00 (0000ms, 0160ms total)
T46A4 000:209 JLINK_WriteReg(R9, 0x2000017C)  returns 0x00 (0000ms, 0160ms total)
T46A4 000:209 JLINK_WriteReg(R10, 0x00000000)  returns 0x00 (0000ms, 0160ms total)
T46A4 000:209 JLINK_WriteReg(R11, 0x00000000)  returns 0x00 (0000ms, 0160ms total)
T46A4 000:209 JLINK_WriteReg(R12, 0x00000000)  returns 0x00 (0001ms, 0161ms total)
T46A4 000:210 JLINK_WriteReg(R13, 0x20000800)  returns 0x00 (0000ms, 0161ms total)
T46A4 000:210 JLINK_WriteReg(R14, 0x20000001)  returns 0x00 (0000ms, 0161ms total)
T46A4 000:210 JLINK_WriteReg(R15, 0x20000054)  returns 0x00 (0000ms, 0161ms total)
T46A4 000:210 JLINK_WriteReg(XPSR, 0x01000000)  returns 0x00 (0000ms, 0161ms total)
T46A4 000:210 JLINK_WriteReg(MSP, 0x20000800)  returns 0x00 (0000ms, 0161ms total)
T46A4 000:210 JLINK_WriteReg(PSP, 0x20000800)  returns 0x00 (0000ms, 0161ms total)
T46A4 000:210 JLINK_WriteReg(CFBP, 0x00000000)  returns 0x00 (0000ms, 0161ms total)
T46A4 000:210 JLINK_SetBPEx(Addr = 0x20000000, Type = 0xFFFFFFF2) -- CPU_ReadMem(2 bytes @ 0x20000000)  returns 0x00000001 (0002ms, 0163ms total)
T46A4 000:212 JLINK_Go() -- CPU_WriteMem(2 bytes @ 0x20000000) -- CPU_WriteMem(4 bytes @ 0xE0002008) -- CPU_WriteMem(4 bytes @ 0xE000200C) -- CPU_WriteMem(4 bytes @ 0xE0002010) -- CPU_WriteMem(4 bytes @ 0xE0002014) -- CPU_WriteMem(4 bytes @ 0xE0002018) -- CPU_WriteMem(4 bytes @ 0xE000201C) (0010ms, 0173ms total)
T46A4 000:222 JLINK_IsHalted() -- CPU_ReadMem(2 bytes @ 0x20000000)  returns TRUE (0021ms, 0194ms total)
T46A4 000:243 JLINK_ReadReg(R15)  returns 0x20000000 (0001ms, 0174ms total)
T46A4 000:244 JLINK_ClrBPEx(BPHandle = 0x00000001)  returns 0x00 (0000ms, 0174ms total)
T46A4 000:244 JLINK_ReadReg(R0)  returns 0x00000000 (0000ms, 0174ms total)
T46A4 000:244 JLINK_WriteReg(R0, 0x08000000)  returns 0x00 (0000ms, 0174ms total)
T46A4 000:244 JLINK_WriteReg(R1, 0x00004000)  returns 0x00 (0000ms, 0174ms total)
T46A4 000:244 JLINK_WriteReg(R2, 0x000000FF)  returns 0x00 (0000ms, 0174ms total)
T46A4 000:244 JLINK_WriteReg(R3, 0x00000000)  returns 0x00 (0000ms, 0174ms total)
T46A4 000:244 JLINK_WriteReg(R4, 0x00000000)  returns 0x00 (0000ms, 0174ms total)
T46A4 000:244 JLINK_WriteReg(R5, 0x00000000)  returns 0x00 (0000ms, 0174ms total)
T46A4 000:245 JLINK_WriteReg(R6, 0x00000000)  returns 0x00 (0000ms, 0175ms total)
T46A4 000:245 JLINK_WriteReg(R7, 0x00000000)  returns 0x00 (0000ms, 0175ms total)
T46A4 000:245 JLINK_WriteReg(R8, 0x00000000)  returns 0x00 (0000ms, 0175ms total)
T46A4 000:245 JLINK_WriteReg(R9, 0x2000017C)  returns 0x00 (0000ms, 0175ms total)
T46A4 000:245 JLINK_WriteReg(R10, 0x00000000)  returns 0x00 (0000ms, 0175ms total)
T46A4 000:245 JLINK_WriteReg(R11, 0x00000000)  returns 0x00 (0000ms, 0175ms total)
T46A4 000:245 JLINK_WriteReg(R12, 0x00000000)  returns 0x00 (0000ms, 0175ms total)
T46A4 000:245 JLINK_WriteReg(R13, 0x20000800)  returns 0x00 (0000ms, 0175ms total)
T46A4 000:245 JLINK_WriteReg(R14, 0x20000001)  returns 0x00 (0000ms, 0175ms total)
T46A4 000:245 JLINK_WriteReg(R15, 0x20000020)  returns 0x00 (0000ms, 0175ms total)
T46A4 000:245 JLINK_WriteReg(XPSR, 0x01000000)  returns 0x00 (0000ms, 0175ms total)
T46A4 000:245 JLINK_WriteReg(MSP, 0x20000800)  returns 0x00 (0000ms, 0175ms total)
T46A4 000:245 JLINK_WriteReg(PSP, 0x20000800)  returns 0x00 (0000ms, 0175ms total)
T46A4 000:245 JLINK_WriteReg(CFBP, 0x00000000)  returns 0x00 (0000ms, 0175ms total)
T46A4 000:245 JLINK_SetBPEx(Addr = 0x20000000, Type = 0xFFFFFFF2)  returns 0x00000002 (0001ms, 0176ms total)
T46A4 000:246 JLINK_Go() (0003ms, 0179ms total)
T46A4 000:249 JLINK_IsHalted() -- CPU_ReadMem(2 bytes @ 0x20000000)  returns TRUE (0022ms, 0201ms total)
T46A4 000:271 JLINK_ReadReg(R15)  returns 0x20000000 (0000ms, 0179ms total)
T46A4 000:271 JLINK_ClrBPEx(BPHandle = 0x00000002)  returns 0x00 (0000ms, 0179ms total)
T46A4 000:271 JLINK_ReadReg(R0)  returns 0x00000001 (0000ms, 0179ms total)
T46A4 000:271 JLINK_WriteReg(R0, 0x08000000)  returns 0x00 (0000ms, 0179ms total)
T46A4 000:271 JLINK_WriteReg(R1, 0x00004000)  returns 0x00 (0000ms, 0179ms total)
T46A4 000:271 JLINK_WriteReg(R2, 0x000000FF)  returns 0x00 (0000ms, 0179ms total)
T46A4 000:271 JLINK_WriteReg(R3, 0x00000000)  returns 0x00 (0000ms, 0179ms total)
T46A4 000:271 JLINK_WriteReg(R4, 0x00000000)  returns 0x00 (0000ms, 0179ms total)
T46A4 000:271 JLINK_WriteReg(R5, 0x00000000)  returns 0x00 (0000ms, 0179ms total)
T46A4 000:271 JLINK_WriteReg(R6, 0x00000000)  returns 0x00 (0000ms, 0179ms total)
T46A4 000:271 JLINK_WriteReg(R7, 0x00000000)  returns 0x00 (0000ms, 0179ms total)
T46A4 000:271 JLINK_WriteReg(R8, 0x00000000)  returns 0x00 (0000ms, 0179ms total)
T46A4 000:271 JLINK_WriteReg(R9, 0x2000017C)  returns 0x00 (0001ms, 0180ms total)
T46A4 000:272 JLINK_WriteReg(R10, 0x00000000)  returns 0x00 (0000ms, 0180ms total)
T46A4 000:272 JLINK_WriteReg(R11, 0x00000000)  returns 0x00 (0000ms, 0180ms total)
T46A4 000:272 JLINK_WriteReg(R12, 0x00000000)  returns 0x00 (0000ms, 0180ms total)
T46A4 000:272 JLINK_WriteReg(R13, 0x20000800)  returns 0x00 (0000ms, 0180ms total)
T46A4 000:272 JLINK_WriteReg(R14, 0x20000001)  returns 0x00 (0000ms, 0180ms total)
T46A4 000:272 JLINK_WriteReg(R15, 0x200000BC)  returns 0x00 (0000ms, 0180ms total)
T46A4 000:272 JLINK_WriteReg(XPSR, 0x01000000)  returns 0x00 (0000ms, 0180ms total)
T46A4 000:272 JLINK_WriteReg(MSP, 0x20000800)  returns 0x00 (0000ms, 0180ms total)
T46A4 000:272 JLINK_WriteReg(PSP, 0x20000800)  returns 0x00 (0000ms, 0180ms total)
T46A4 000:272 JLINK_WriteReg(CFBP, 0x00000000)  returns 0x00 (0000ms, 0180ms total)
T46A4 000:272 JLINK_SetBPEx(Addr = 0x20000000, Type = 0xFFFFFFF2)  returns 0x00000003 (0000ms, 0180ms total)
T46A4 000:272 JLINK_Go() (0004ms, 0184ms total)
T46A4 000:276 JLINK_IsHalted()  returns FALSE (0002ms, 0186ms total)
T46A4 000:316 JLINK_IsHalted()  returns FALSE (0001ms, 0185ms total)
T46A4 000:319 JLINK_IsHalted()  returns FALSE (0001ms, 0185ms total)
T46A4 000:324 JLINK_IsHalted()  returns FALSE (0001ms, 0185ms total)
T46A4 000:327 JLINK_IsHalted()  returns FALSE (0001ms, 0185ms total)
T46A4 000:330 JLINK_IsHalted()  returns FALSE (0001ms, 0185ms total)
T46A4 000:336 JLINK_IsHalted()  returns FALSE (0001ms, 0185ms total)
T46A4 000:339 JLINK_IsHalted()  returns FALSE (0001ms, 0185ms total)
T46A4 000:342 JLINK_IsHalted()  returns FALSE (0001ms, 0185ms total)
T46A4 000:345 JLINK_IsHalted()  returns FALSE (0001ms, 0185ms total)
T46A4 000:348 JLINK_IsHalted()  returns FALSE (0001ms, 0185ms total)
T46A4 000:354 JLINK_IsHalted()  returns FALSE (0001ms, 0185ms total)
T46A4 000:357 JLINK_IsHalted()  returns FALSE (0001ms, 0185ms total)
T46A4 000:360 JLINK_IsHalted()  returns FALSE (0001ms, 0185ms total)
T46A4 000:363 JLINK_IsHalted()  returns FALSE (0001ms, 0185ms total)
T46A4 000:369 JLINK_IsHalted()  returns FALSE (0001ms, 0185ms total)
T46A4 000:372 JLINK_IsHalted()  returns FALSE (0001ms, 0185ms total)
T46A4 000:375 JLINK_IsHalted()  returns FALSE (0001ms, 0185ms total)
T46A4 000:378 JLINK_IsHalted()  returns FALSE (0001ms, 0185ms total)
T46A4 000:383 JLINK_IsHalted()  returns FALSE (0001ms, 0185ms total)
T46A4 000:386 JLINK_IsHalted()  returns FALSE (0001ms, 0185ms total)
T46A4 000:389 JLINK_IsHalted()  returns FALSE (0001ms, 0185ms total)
T46A4 000:394 JLINK_IsHalted()  returns FALSE (0001ms, 0185ms total)
T46A4 000:397 JLINK_IsHalted()  returns FALSE (0001ms, 0185ms total)
T46A4 000:404 JLINK_IsHalted()  returns FALSE (0001ms, 0185ms total)
T46A4 000:408 JLINK_IsHalted()  returns FALSE (0001ms, 0185ms total)
T46A4 000:418 JLINK_IsHalted()  returns FALSE (0001ms, 0185ms total)
T46A4 000:421 JLINK_IsHalted()  returns FALSE (0001ms, 0185ms total)
T46A4 000:425 JLINK_IsHalted()  returns FALSE (0001ms, 0185ms total)
T46A4 000:428 JLINK_IsHalted()  returns FALSE (0001ms, 0185ms total)
T46A4 000:436 JLINK_IsHalted()  returns FALSE (0001ms, 0185ms total)
T46A4 000:442 JLINK_IsHalted()  returns FALSE (0001ms, 0185ms total)
T46A4 000:449 JLINK_IsHalted()  returns FALSE (0001ms, 0185ms total)
T46A4 000:452 JLINK_IsHalted()  returns FALSE (0001ms, 0185ms total)
T46A4 000:456 JLINK_IsHalted()  returns FALSE (0001ms, 0185ms total)
T46A4 000:462 JLINK_IsHalted()  returns FALSE (0001ms, 0185ms total)
T46A4 000:466 JLINK_IsHalted()  returns FALSE (0001ms, 0185ms total)
T46A4 000:469 JLINK_IsHalted()  returns FALSE (0001ms, 0185ms total)
T46A4 000:473 JLINK_IsHalted()  returns FALSE (0001ms, 0185ms total)
T46A4 000:480 JLINK_IsHalted()  returns FALSE (0001ms, 0185ms total)
T46A4 000:483 JLINK_IsHalted()  returns FALSE (0001ms, 0185ms total)
T46A4 000:486 JLINK_IsHalted()  returns FALSE (0001ms, 0185ms total)
T46A4 000:492 JLINK_IsHalted()  returns FALSE (0001ms, 0185ms total)
T46A4 000:496 JLINK_IsHalted()  returns FALSE (0001ms, 0185ms total)
T46A4 000:499 JLINK_IsHalted()  returns FALSE (0001ms, 0185ms total)
T46A4 000:502 JLINK_IsHalted()  returns FALSE (0001ms, 0185ms total)
T46A4 000:506 JLINK_IsHalted()  returns FALSE (0001ms, 0185ms total)
T46A4 000:512 JLINK_IsHalted()  returns FALSE (0001ms, 0185ms total)
T46A4 000:515 JLINK_IsHalted()  returns FALSE (0001ms, 0185ms total)
T46A4 000:518 JLINK_IsHalted()  returns FALSE (0001ms, 0185ms total)
T46A4 000:522 JLINK_IsHalted()  returns FALSE (0001ms, 0185ms total)
T46A4 000:533 JLINK_IsHalted()  returns FALSE (0001ms, 0185ms total)
T46A4 000:540 JLINK_IsHalted()  returns FALSE (0001ms, 0185ms total)
T46A4 000:544 JLINK_IsHalted()  returns FALSE (0001ms, 0185ms total)
T46A4 000:547 JLINK_IsHalted()  returns FALSE (0001ms, 0185ms total)
T46A4 000:550 JLINK_IsHalted()  returns FALSE (0001ms, 0185ms total)
T46A4 000:554 JLINK_IsHalted()  returns FALSE (0001ms, 0185ms total)
T46A4 000:560 JLINK_IsHalted()  returns FALSE (0001ms, 0185ms total)
T46A4 000:563 JLINK_IsHalted()  returns FALSE (0001ms, 0185ms total)
T46A4 000:566 JLINK_IsHalted()  returns FALSE (0001ms, 0185ms total)
T46A4 000:572 JLINK_IsHalted()  returns FALSE (0001ms, 0185ms total)
T46A4 000:575 JLINK_IsHalted()  returns FALSE (0001ms, 0185ms total)
T46A4 000:578 JLINK_IsHalted()  returns FALSE (0001ms, 0185ms total)
T46A4 000:581 JLINK_IsHalted()  returns FALSE (0001ms, 0185ms total)
T46A4 000:584 JLINK_IsHalted()  returns FALSE (0001ms, 0185ms total)
T46A4 000:590 JLINK_IsHalted()  returns FALSE (0001ms, 0185ms total)
T46A4 000:593 JLINK_IsHalted()  returns FALSE (0001ms, 0185ms total)
T46A4 000:596 JLINK_IsHalted()  returns FALSE (0001ms, 0185ms total)
T46A4 000:602 JLINK_IsHalted()  returns FALSE (0001ms, 0185ms total)
T46A4 000:605 JLINK_IsHalted()  returns FALSE (0001ms, 0185ms total)
T46A4 000:608 JLINK_IsHalted()  returns FALSE (0001ms, 0185ms total)
T46A4 000:611 JLINK_IsHalted()  returns FALSE (0001ms, 0185ms total)
T46A4 000:615 JLINK_IsHalted()  returns FALSE (0001ms, 0185ms total)
T46A4 000:618 JLINK_IsHalted()  returns FALSE (0001ms, 0185ms total)
T46A4 000:621 JLINK_IsHalted()  returns FALSE (0001ms, 0185ms total)
T46A4 000:624 JLINK_IsHalted()  returns FALSE (0001ms, 0185ms total)
T46A4 000:627 JLINK_IsHalted()  returns FALSE (0001ms, 0185ms total)
T46A4 000:630 JLINK_IsHalted()  returns FALSE (0001ms, 0185ms total)
T46A4 000:639 JLINK_IsHalted()  returns FALSE (0001ms, 0185ms total)
T46A4 000:642 JLINK_IsHalted() -- CPU_ReadMem(2 bytes @ 0x20000000)  returns TRUE (0021ms, 0205ms total)
T46A4 000:663 JLINK_ReadReg(R15)  returns 0x20000000 (0000ms, 0184ms total)
T46A4 000:663 JLINK_ClrBPEx(BPHandle = 0x00000003)  returns 0x00 (0000ms, 0184ms total)
T46A4 000:663 JLINK_ReadReg(R0)  returns 0x00000000 (0000ms, 0184ms total)
T46A4 000:663 JLINK_WriteReg(R0, 0x08004000)  returns 0x00 (0001ms, 0185ms total)
T46A4 000:664 JLINK_WriteReg(R1, 0x00004000)  returns 0x00 (0000ms, 0185ms total)
T46A4 000:664 JLINK_WriteReg(R2, 0x000000FF)  returns 0x00 (0000ms, 0185ms total)
T46A4 000:664 JLINK_WriteReg(R3, 0x00000000)  returns 0x00 (0000ms, 0185ms total)
T46A4 000:664 JLINK_WriteReg(R4, 0x00000000)  returns 0x00 (0000ms, 0185ms total)
T46A4 000:664 JLINK_WriteReg(R5, 0x00000000)  returns 0x00 (0000ms, 0185ms total)
T46A4 000:664 JLINK_WriteReg(R6, 0x00000000)  returns 0x00 (0000ms, 0185ms total)
T46A4 000:664 JLINK_WriteReg(R7, 0x00000000)  returns 0x00 (0000ms, 0185ms total)
T46A4 000:664 JLINK_WriteReg(R8, 0x00000000)  returns 0x00 (0000ms, 0185ms total)
T46A4 000:664 JLINK_WriteReg(R9, 0x2000017C)  returns 0x00 (0000ms, 0185ms total)
T46A4 000:664 JLINK_WriteReg(R10, 0x00000000)  returns 0x00 (0000ms, 0185ms total)
T46A4 000:664 JLINK_WriteReg(R11, 0x00000000)  returns 0x00 (0000ms, 0185ms total)
T46A4 000:664 JLINK_WriteReg(R12, 0x00000000)  returns 0x00 (0000ms, 0185ms total)
T46A4 000:664 JLINK_WriteReg(R13, 0x20000800)  returns 0x00 (0000ms, 0185ms total)
T46A4 000:664 JLINK_WriteReg(R14, 0x20000001)  returns 0x00 (0000ms, 0185ms total)
T46A4 000:664 JLINK_WriteReg(R15, 0x20000020)  returns 0x00 (0001ms, 0186ms total)
T46A4 000:665 JLINK_WriteReg(XPSR, 0x01000000)  returns 0x00 (0000ms, 0186ms total)
T46A4 000:665 JLINK_WriteReg(MSP, 0x20000800)  returns 0x00 (0000ms, 0186ms total)
T46A4 000:665 JLINK_WriteReg(PSP, 0x20000800)  returns 0x00 (0000ms, 0186ms total)
T46A4 000:665 JLINK_WriteReg(CFBP, 0x00000000)  returns 0x00 (0000ms, 0186ms total)
T46A4 000:665 JLINK_SetBPEx(Addr = 0x20000000, Type = 0xFFFFFFF2)  returns 0x00000004 (0000ms, 0186ms total)
T46A4 000:665 JLINK_Go() (0004ms, 0190ms total)
T46A4 000:669 JLINK_IsHalted() -- CPU_ReadMem(2 bytes @ 0x20000000)  returns TRUE (0022ms, 0212ms total)
T46A4 000:691 JLINK_ReadReg(R15)  returns 0x20000000 (0000ms, 0190ms total)
T46A4 000:691 JLINK_ClrBPEx(BPHandle = 0x00000004)  returns 0x00 (0000ms, 0190ms total)
T46A4 000:691 JLINK_ReadReg(R0)  returns 0x00000001 (0000ms, 0190ms total)
T46A4 000:691 JLINK_WriteReg(R0, 0x08004000)  returns 0x00 (0000ms, 0190ms total)
T46A4 000:691 JLINK_WriteReg(R1, 0x00004000)  returns 0x00 (0000ms, 0190ms total)
T46A4 000:691 JLINK_WriteReg(R2, 0x000000FF)  returns 0x00 (0000ms, 0190ms total)
T46A4 000:691 JLINK_WriteReg(R3, 0x00000000)  returns 0x00 (0000ms, 0190ms total)
T46A4 000:691 JLINK_WriteReg(R4, 0x00000000)  returns 0x00 (0000ms, 0190ms total)
T46A4 000:691 JLINK_WriteReg(R5, 0x00000000)  returns 0x00 (0000ms, 0190ms total)
T46A4 000:691 JLINK_WriteReg(R6, 0x00000000)  returns 0x00 (0000ms, 0190ms total)
T46A4 000:691 JLINK_WriteReg(R7, 0x00000000)  returns 0x00 (0000ms, 0190ms total)
T46A4 000:691 JLINK_WriteReg(R8, 0x00000000)  returns 0x00 (0000ms, 0190ms total)
T46A4 000:691 JLINK_WriteReg(R9, 0x2000017C)  returns 0x00 (0000ms, 0190ms total)
T46A4 000:691 JLINK_WriteReg(R10, 0x00000000)  returns 0x00 (0000ms, 0190ms total)
T46A4 000:691 JLINK_WriteReg(R11, 0x00000000)  returns 0x00 (0001ms, 0191ms total)
T46A4 000:692 JLINK_WriteReg(R12, 0x00000000)  returns 0x00 (0000ms, 0191ms total)
T46A4 000:692 JLINK_WriteReg(R13, 0x20000800)  returns 0x00 (0000ms, 0191ms total)
T46A4 000:692 JLINK_WriteReg(R14, 0x20000001)  returns 0x00 (0000ms, 0191ms total)
T46A4 000:692 JLINK_WriteReg(R15, 0x200000BC)  returns 0x00 (0000ms, 0191ms total)
T46A4 000:692 JLINK_WriteReg(XPSR, 0x01000000)  returns 0x00 (0000ms, 0191ms total)
T46A4 000:692 JLINK_WriteReg(MSP, 0x20000800)  returns 0x00 (0000ms, 0191ms total)
T46A4 000:692 JLINK_WriteReg(PSP, 0x20000800)  returns 0x00 (0000ms, 0191ms total)
T46A4 000:692 JLINK_WriteReg(CFBP, 0x00000000)  returns 0x00 (0000ms, 0191ms total)
T46A4 000:692 JLINK_SetBPEx(Addr = 0x20000000, Type = 0xFFFFFFF2)  returns 0x00000005 (0000ms, 0191ms total)
T46A4 000:692 JLINK_Go() (0004ms, 0195ms total)
T46A4 000:696 JLINK_IsHalted()  returns FALSE (0001ms, 0196ms total)
T46A4 000:710 JLINK_IsHalted()  returns FALSE (0001ms, 0196ms total)
T46A4 000:713 JLINK_IsHalted()  returns FALSE (0001ms, 0196ms total)
T46A4 000:716 JLINK_IsHalted()  returns FALSE (0001ms, 0196ms total)
T46A4 000:719 JLINK_IsHalted()  returns FALSE (0001ms, 0196ms total)
T46A4 000:722 JLINK_IsHalted()  returns FALSE (0001ms, 0196ms total)
T46A4 000:727 JLINK_IsHalted()  returns FALSE (0001ms, 0196ms total)
T46A4 000:730 JLINK_IsHalted()  returns FALSE (0001ms, 0196ms total)
T46A4 000:733 JLINK_IsHalted()  returns FALSE (0001ms, 0196ms total)
T46A4 000:736 JLINK_IsHalted()  returns FALSE (0001ms, 0196ms total)
T46A4 000:739 JLINK_IsHalted()  returns FALSE (0001ms, 0196ms total)
T46A4 000:747 JLINK_IsHalted()  returns FALSE (0001ms, 0196ms total)
T46A4 000:750 JLINK_IsHalted()  returns FALSE (0001ms, 0196ms total)
T46A4 000:753 JLINK_IsHalted()  returns FALSE (0001ms, 0196ms total)
T46A4 000:756 JLINK_IsHalted()  returns FALSE (0001ms, 0196ms total)
T46A4 000:762 JLINK_IsHalted()  returns FALSE (0001ms, 0196ms total)
T46A4 000:765 JLINK_IsHalted()  returns FALSE (0001ms, 0196ms total)
T46A4 000:768 JLINK_IsHalted()  returns FALSE (0001ms, 0196ms total)
T46A4 000:773 JLINK_IsHalted()  returns FALSE (0001ms, 0196ms total)
T46A4 000:776 JLINK_IsHalted()  returns FALSE (0001ms, 0196ms total)
T46A4 000:779 JLINK_IsHalted()  returns FALSE (0001ms, 0196ms total)
T46A4 000:782 JLINK_IsHalted()  returns FALSE (0001ms, 0196ms total)
T46A4 000:785 JLINK_IsHalted()  returns FALSE (0001ms, 0196ms total)
T46A4 000:791 JLINK_IsHalted()  returns FALSE (0001ms, 0196ms total)
T46A4 000:794 JLINK_IsHalted()  returns FALSE (0001ms, 0196ms total)
T46A4 000:797 JLINK_IsHalted()  returns FALSE (0001ms, 0196ms total)
T46A4 000:800 JLINK_IsHalted()  returns FALSE (0001ms, 0196ms total)
T46A4 000:803 JLINK_IsHalted()  returns FALSE (0001ms, 0196ms total)
T46A4 000:810 JLINK_IsHalted()  returns FALSE (0001ms, 0196ms total)
T46A4 000:813 JLINK_IsHalted()  returns FALSE (0001ms, 0196ms total)
T46A4 000:816 JLINK_IsHalted()  returns FALSE (0001ms, 0196ms total)
T46A4 000:820 JLINK_IsHalted()  returns FALSE (0001ms, 0196ms total)
T46A4 000:823 JLINK_IsHalted()  returns FALSE (0001ms, 0196ms total)
T46A4 000:826 JLINK_IsHalted()  returns FALSE (0001ms, 0196ms total)
T46A4 000:829 JLINK_IsHalted()  returns FALSE (0001ms, 0196ms total)
T46A4 000:832 JLINK_IsHalted()  returns FALSE (0001ms, 0196ms total)
T46A4 000:837 JLINK_IsHalted()  returns FALSE (0001ms, 0196ms total)
T46A4 000:840 JLINK_IsHalted()  returns FALSE (0001ms, 0196ms total)
T46A4 000:843 JLINK_IsHalted()  returns FALSE (0001ms, 0196ms total)
T46A4 000:846 JLINK_IsHalted()  returns FALSE (0001ms, 0196ms total)
T46A4 000:854 JLINK_IsHalted()  returns FALSE (0001ms, 0196ms total)
T46A4 000:857 JLINK_IsHalted()  returns FALSE (0001ms, 0196ms total)
T46A4 000:860 JLINK_IsHalted()  returns FALSE (0001ms, 0196ms total)
T46A4 000:863 JLINK_IsHalted()  returns FALSE (0001ms, 0196ms total)
T46A4 000:866 JLINK_IsHalted()  returns FALSE (0001ms, 0196ms total)
T46A4 000:869 JLINK_IsHalted()  returns FALSE (0001ms, 0196ms total)
T46A4 000:874 JLINK_IsHalted()  returns FALSE (0001ms, 0196ms total)
T46A4 000:877 JLINK_IsHalted()  returns FALSE (0001ms, 0196ms total)
T46A4 000:883 JLINK_IsHalted()  returns FALSE (0001ms, 0196ms total)
T46A4 000:886 JLINK_IsHalted()  returns FALSE (0001ms, 0196ms total)
T46A4 000:889 JLINK_IsHalted()  returns FALSE (0001ms, 0196ms total)
T46A4 000:892 JLINK_IsHalted()  returns FALSE (0001ms, 0196ms total)
T46A4 000:895 JLINK_IsHalted()  returns FALSE (0001ms, 0196ms total)
T46A4 000:901 JLINK_IsHalted()  returns FALSE (0001ms, 0196ms total)
T46A4 000:904 JLINK_IsHalted()  returns FALSE (0001ms, 0196ms total)
T46A4 000:907 JLINK_IsHalted()  returns FALSE (0001ms, 0196ms total)
T46A4 000:910 JLINK_IsHalted()  returns FALSE (0001ms, 0196ms total)
T46A4 000:916 JLINK_IsHalted()  returns FALSE (0001ms, 0196ms total)
T46A4 000:919 JLINK_IsHalted()  returns FALSE (0001ms, 0196ms total)
T46A4 000:922 JLINK_IsHalted()  returns FALSE (0001ms, 0196ms total)
T46A4 000:925 JLINK_IsHalted()  returns FALSE (0001ms, 0196ms total)
T46A4 000:928 JLINK_IsHalted()  returns FALSE (0001ms, 0196ms total)
T46A4 000:932 JLINK_IsHalted()  returns FALSE (0001ms, 0196ms total)
T46A4 000:935 JLINK_IsHalted()  returns FALSE (0001ms, 0196ms total)
T46A4 000:938 JLINK_IsHalted()  returns FALSE (0001ms, 0196ms total)
T46A4 000:941 JLINK_IsHalted()  returns FALSE (0001ms, 0196ms total)
T46A4 000:945 JLINK_IsHalted()  returns FALSE (0001ms, 0196ms total)
T46A4 000:948 JLINK_IsHalted()  returns FALSE (0001ms, 0196ms total)
T46A4 000:951 JLINK_IsHalted()  returns FALSE (0001ms, 0196ms total)
T46A4 000:954 JLINK_IsHalted()  returns FALSE (0001ms, 0196ms total)
T46A4 000:957 JLINK_IsHalted()  returns FALSE (0001ms, 0196ms total)
T46A4 000:960 JLINK_IsHalted()  returns FALSE (0001ms, 0196ms total)
T46A4 000:968 JLINK_IsHalted()  returns FALSE (0001ms, 0196ms total)
T46A4 000:971 JLINK_IsHalted()  returns FALSE (0001ms, 0196ms total)
T46A4 000:977 JLINK_IsHalted()  returns FALSE (0001ms, 0196ms total)
T46A4 000:980 JLINK_IsHalted()  returns FALSE (0001ms, 0196ms total)
T46A4 000:983 JLINK_IsHalted()  returns FALSE (0001ms, 0196ms total)
T46A4 000:986 JLINK_IsHalted()  returns FALSE (0001ms, 0196ms total)
T46A4 000:992 JLINK_IsHalted()  returns FALSE (0001ms, 0196ms total)
T46A4 000:995 JLINK_IsHalted()  returns FALSE (0001ms, 0196ms total)
T46A4 000:998 JLINK_IsHalted()  returns FALSE (0001ms, 0196ms total)
T46A4 001:001 JLINK_IsHalted()  returns FALSE (0001ms, 0196ms total)
T46A4 001:004 JLINK_IsHalted()  returns FALSE (0001ms, 0197ms total)
T46A4 001:010 JLINK_IsHalted()  returns FALSE (0001ms, 0197ms total)
T46A4 001:013 JLINK_IsHalted()  returns FALSE (0001ms, 0197ms total)
T46A4 001:016 JLINK_IsHalted()  returns FALSE (0001ms, 0197ms total)
T46A4 001:019 JLINK_IsHalted()  returns FALSE (0001ms, 0197ms total)
T46A4 001:022 JLINK_IsHalted()  returns FALSE (0001ms, 0197ms total)
T46A4 001:028 JLINK_IsHalted()  returns FALSE (0001ms, 0197ms total)
T46A4 001:031 JLINK_IsHalted()  returns FALSE (0001ms, 0197ms total)
T46A4 001:034 JLINK_IsHalted()  returns FALSE (0001ms, 0197ms total)
T46A4 001:038 JLINK_IsHalted()  returns FALSE (0001ms, 0197ms total)
T46A4 001:041 JLINK_IsHalted()  returns FALSE (0001ms, 0197ms total)
T46A4 001:044 JLINK_IsHalted()  returns FALSE (0001ms, 0197ms total)
T46A4 001:047 JLINK_IsHalted()  returns FALSE (0001ms, 0197ms total)
T46A4 001:050 JLINK_IsHalted()  returns FALSE (0001ms, 0197ms total)
T46A4 001:053 JLINK_IsHalted()  returns FALSE (0001ms, 0197ms total)
T46A4 001:057 JLINK_IsHalted()  returns FALSE (0001ms, 0197ms total)
T46A4 001:060 JLINK_IsHalted()  returns FALSE (0001ms, 0197ms total)
T46A4 001:063 JLINK_IsHalted() -- CPU_ReadMem(2 bytes @ 0x20000000)  returns TRUE (0021ms, 0217ms total)
T46A4 001:084 JLINK_ReadReg(R15)  returns 0x20000000 (0000ms, 0196ms total)
T46A4 001:084 JLINK_ClrBPEx(BPHandle = 0x00000005)  returns 0x00 (0000ms, 0196ms total)
T46A4 001:084 JLINK_ReadReg(R0)  returns 0x00000000 (0000ms, 0196ms total)
T46A4 001:084 JLINK_WriteReg(R0, 0x00000001)  returns 0x00 (0000ms, 0196ms total)
T46A4 001:084 JLINK_WriteReg(R1, 0x00004000)  returns 0x00 (0001ms, 0197ms total)
T46A4 001:085 JLINK_WriteReg(R2, 0x000000FF)  returns 0x00 (0000ms, 0197ms total)
T46A4 001:085 JLINK_WriteReg(R3, 0x00000000)  returns 0x00 (0000ms, 0197ms total)
T46A4 001:085 JLINK_WriteReg(R4, 0x00000000)  returns 0x00 (0000ms, 0197ms total)
T46A4 001:085 JLINK_WriteReg(R5, 0x00000000)  returns 0x00 (0000ms, 0197ms total)
T46A4 001:085 JLINK_WriteReg(R6, 0x00000000)  returns 0x00 (0000ms, 0197ms total)
T46A4 001:085 JLINK_WriteReg(R7, 0x00000000)  returns 0x00 (0000ms, 0197ms total)
T46A4 001:085 JLINK_WriteReg(R8, 0x00000000)  returns 0x00 (0000ms, 0197ms total)
T46A4 001:085 JLINK_WriteReg(R9, 0x2000017C)  returns 0x00 (0000ms, 0197ms total)
T46A4 001:085 JLINK_WriteReg(R10, 0x00000000)  returns 0x00 (0000ms, 0197ms total)
T46A4 001:085 JLINK_WriteReg(R11, 0x00000000)  returns 0x00 (0000ms, 0197ms total)
T46A4 001:085 JLINK_WriteReg(R12, 0x00000000)  returns 0x00 (0000ms, 0197ms total)
T46A4 001:085 JLINK_WriteReg(R13, 0x20000800)  returns 0x00 (0000ms, 0197ms total)
T46A4 001:085 JLINK_WriteReg(R14, 0x20000001)  returns 0x00 (0000ms, 0197ms total)
T46A4 001:085 JLINK_WriteReg(R15, 0x20000082)  returns 0x00 (0000ms, 0197ms total)
T46A4 001:086 JLINK_WriteReg(XPSR, 0x01000000)  returns 0x00 (0000ms, 0198ms total)
T46A4 001:086 JLINK_WriteReg(MSP, 0x20000800)  returns 0x00 (0000ms, 0198ms total)
T46A4 001:086 JLINK_WriteReg(PSP, 0x20000800)  returns 0x00 (0000ms, 0198ms total)
T46A4 001:086 JLINK_WriteReg(CFBP, 0x00000000)  returns 0x00 (0000ms, 0198ms total)
T46A4 001:086 JLINK_SetBPEx(Addr = 0x20000000, Type = 0xFFFFFFF2)  returns 0x00000006 (0000ms, 0198ms total)
T46A4 001:086 JLINK_Go() (0004ms, 0202ms total)
T46A4 001:090 JLINK_IsHalted() -- CPU_ReadMem(2 bytes @ 0x20000000)  returns TRUE (0022ms, 0224ms total)
T46A4 001:112 JLINK_ReadReg(R15)  returns 0x20000000 (0000ms, 0202ms total)
T46A4 001:112 JLINK_ClrBPEx(BPHandle = 0x00000006)  returns 0x00 (0000ms, 0202ms total)
T46A4 001:112 JLINK_ReadReg(R0)  returns 0x00000000 (0000ms, 0202ms total)
T46A4 001:168 JLINK_WriteMem(0x20000000, 0x0180 Bytes, ...) -- Data:  00 BE 0A E0 0D 78 2D 06 68 40 08 24 40 00 00 D3 ... -- CPU_WriteMem(384 bytes @ 0x20000000)  returns 0x180 (0011ms, 0213ms total)
T46A4 001:179 JLINK_WriteReg(R0, 0x08000000)  returns 0x00 (0000ms, 0213ms total)
T46A4 001:179 JLINK_WriteReg(R1, 0x00F42400)  returns 0x00 (0000ms, 0213ms total)
T46A4 001:179 JLINK_WriteReg(R2, 0x00000002)  returns 0x00 (0000ms, 0213ms total)
T46A4 001:179 JLINK_WriteReg(R3, 0x00000000)  returns 0x00 (0000ms, 0213ms total)
T46A4 001:179 JLINK_WriteReg(R4, 0x00000000)  returns 0x00 (0000ms, 0213ms total)
T46A4 001:179 JLINK_WriteReg(R5, 0x00000000)  returns 0x00 (0000ms, 0213ms total)
T46A4 001:179 JLINK_WriteReg(R6, 0x00000000)  returns 0x00 (0000ms, 0213ms total)
T46A4 001:179 JLINK_WriteReg(R7, 0x00000000)  returns 0x00 (0000ms, 0213ms total)
T46A4 001:179 JLINK_WriteReg(R8, 0x00000000)  returns 0x00 (0000ms, 0213ms total)
T46A4 001:179 JLINK_WriteReg(R9, 0x2000017C)  returns 0x00 (0000ms, 0213ms total)
T46A4 001:179 JLINK_WriteReg(R10, 0x00000000)  returns 0x00 (0001ms, 0214ms total)
T46A4 001:180 JLINK_WriteReg(R11, 0x00000000)  returns 0x00 (0000ms, 0214ms total)
T46A4 001:180 JLINK_WriteReg(R12, 0x00000000)  returns 0x00 (0000ms, 0214ms total)
T46A4 001:180 JLINK_WriteReg(R13, 0x20000800)  returns 0x00 (0000ms, 0214ms total)
T46A4 001:180 JLINK_WriteReg(R14, 0x20000001)  returns 0x00 (0000ms, 0214ms total)
T46A4 001:180 JLINK_WriteReg(R15, 0x20000054)  returns 0x00 (0000ms, 0214ms total)
T46A4 001:180 JLINK_WriteReg(XPSR, 0x01000000)  returns 0x00 (0000ms, 0214ms total)
T46A4 001:180 JLINK_WriteReg(MSP, 0x20000800)  returns 0x00 (0000ms, 0214ms total)
T46A4 001:180 JLINK_WriteReg(PSP, 0x20000800)  returns 0x00 (0000ms, 0214ms total)
T46A4 001:180 JLINK_WriteReg(CFBP, 0x00000000)  returns 0x00 (0000ms, 0214ms total)
T46A4 001:180 JLINK_SetBPEx(Addr = 0x20000000, Type = 0xFFFFFFF2) -- CPU_ReadMem(2 bytes @ 0x20000000)  returns 0x00000007 (0002ms, 0216ms total)
T46A4 001:182 JLINK_Go() -- CPU_WriteMem(2 bytes @ 0x20000000) (0005ms, 0221ms total)
T46A4 001:187 JLINK_IsHalted() -- CPU_ReadMem(2 bytes @ 0x20000000)  returns TRUE (0021ms, 0242ms total)
T46A4 001:208 JLINK_ReadReg(R15)  returns 0x20000000 (0000ms, 0221ms total)
T46A4 001:208 JLINK_ClrBPEx(BPHandle = 0x00000007)  returns 0x00 (0000ms, 0221ms total)
T46A4 001:208 JLINK_ReadReg(R0)  returns 0x00000000 (0000ms, 0221ms total)
T46A4 001:209 JLINK_WriteMem(0x20000180, 0x0400 Bytes, ...) -- Data:  B8 20 00 20 6D 02 00 08 29 30 00 08 A1 29 00 08 ... -- CPU_WriteMem(1024 bytes @ 0x20000180)  returns 0x400 (0027ms, 0248ms total)
T46A4 001:237 JLINK_WriteReg(R0, 0x08000000)  returns 0x00 (0000ms, 0249ms total)
T46A4 001:237 JLINK_WriteReg(R1, 0x00000400)  returns 0x00 (0000ms, 0249ms total)
T46A4 001:237 JLINK_WriteReg(R2, 0x20000180)  returns 0x00 (0000ms, 0249ms total)
T46A4 001:237 JLINK_WriteReg(R3, 0x00000000)  returns 0x00 (0000ms, 0249ms total)
T46A4 001:237 JLINK_WriteReg(R4, 0x00000000)  returns 0x00 (0000ms, 0249ms total)
T46A4 001:237 JLINK_WriteReg(R5, 0x00000000)  returns 0x00 (0000ms, 0249ms total)
T46A4 001:237 JLINK_WriteReg(R6, 0x00000000)  returns 0x00 (0000ms, 0249ms total)
T46A4 001:237 JLINK_WriteReg(R7, 0x00000000)  returns 0x00 (0000ms, 0249ms total)
T46A4 001:237 JLINK_WriteReg(R8, 0x00000000)  returns 0x00 (0000ms, 0249ms total)
T46A4 001:237 JLINK_WriteReg(R9, 0x2000017C)  returns 0x00 (0000ms, 0249ms total)
T46A4 001:237 JLINK_WriteReg(R10, 0x00000000)  returns 0x00 (0000ms, 0249ms total)
T46A4 001:237 JLINK_WriteReg(R11, 0x00000000)  returns 0x00 (0000ms, 0249ms total)
T46A4 001:237 JLINK_WriteReg(R12, 0x00000000)  returns 0x00 (0000ms, 0249ms total)
T46A4 001:237 JLINK_WriteReg(R13, 0x20000800)  returns 0x00 (0000ms, 0249ms total)
T46A4 001:237 JLINK_WriteReg(R14, 0x20000001)  returns 0x00 (0001ms, 0250ms total)
T46A4 001:238 JLINK_WriteReg(R15, 0x20000108)  returns 0x00 (0000ms, 0250ms total)
T46A4 001:238 JLINK_WriteReg(XPSR, 0x01000000)  returns 0x00 (0000ms, 0250ms total)
T46A4 001:238 JLINK_WriteReg(MSP, 0x20000800)  returns 0x00 (0000ms, 0250ms total)
T46A4 001:238 JLINK_WriteReg(PSP, 0x20000800)  returns 0x00 (0000ms, 0250ms total)
T46A4 001:238 JLINK_WriteReg(CFBP, 0x00000000)  returns 0x00 (0000ms, 0250ms total)
T46A4 001:238 JLINK_SetBPEx(Addr = 0x20000000, Type = 0xFFFFFFF2)  returns 0x00000008 (0000ms, 0250ms total)
T46A4 001:238 JLINK_Go() (0004ms, 0254ms total)
T46A4 001:242 JLINK_IsHalted()  returns FALSE (0001ms, 0255ms total)
T46A4 001:267 JLINK_IsHalted() -- CPU_ReadMem(2 bytes @ 0x20000000)  returns TRUE (0021ms, 0275ms total)
T46A4 001:288 JLINK_ReadReg(R15)  returns 0x20000000 (0000ms, 0254ms total)
T46A4 001:288 JLINK_ClrBPEx(BPHandle = 0x00000008)  returns 0x00 (0000ms, 0254ms total)
T46A4 001:288 JLINK_ReadReg(R0)  returns 0x00000000 (0000ms, 0254ms total)
T46A4 001:289 JLINK_WriteMem(0x20000180, 0x0400 Bytes, ...) -- Data:  00 27 C4 F8 18 A0 2A 2E 09 D0 30 46 05 F0 C8 F8 ... -- CPU_WriteMem(1024 bytes @ 0x20000180)  returns 0x400 (0027ms, 0281ms total)
T46A4 001:316 JLINK_WriteReg(R0, 0x08000400)  returns 0x00 (0000ms, 0281ms total)
T46A4 001:316 JLINK_WriteReg(R1, 0x00000400)  returns 0x00 (0000ms, 0281ms total)
T46A4 001:316 JLINK_WriteReg(R2, 0x20000180)  returns 0x00 (0000ms, 0281ms total)
T46A4 001:316 JLINK_WriteReg(R3, 0x00000000)  returns 0x00 (0001ms, 0282ms total)
T46A4 001:317 JLINK_WriteReg(R4, 0x00000000)  returns 0x00 (0000ms, 0282ms total)
T46A4 001:317 JLINK_WriteReg(R5, 0x00000000)  returns 0x00 (0000ms, 0282ms total)
T46A4 001:317 JLINK_WriteReg(R6, 0x00000000)  returns 0x00 (0000ms, 0282ms total)
T46A4 001:317 JLINK_WriteReg(R7, 0x00000000)  returns 0x00 (0000ms, 0282ms total)
T46A4 001:317 JLINK_WriteReg(R8, 0x00000000)  returns 0x00 (0000ms, 0282ms total)
T46A4 001:317 JLINK_WriteReg(R9, 0x2000017C)  returns 0x00 (0000ms, 0282ms total)
T46A4 001:317 JLINK_WriteReg(R10, 0x00000000)  returns 0x00 (0000ms, 0282ms total)
T46A4 001:317 JLINK_WriteReg(R11, 0x00000000)  returns 0x00 (0000ms, 0282ms total)
T46A4 001:317 JLINK_WriteReg(R12, 0x00000000)  returns 0x00 (0000ms, 0282ms total)
T46A4 001:317 JLINK_WriteReg(R13, 0x20000800)  returns 0x00 (0000ms, 0282ms total)
T46A4 001:317 JLINK_WriteReg(R14, 0x20000001)  returns 0x00 (0000ms, 0282ms total)
T46A4 001:317 JLINK_WriteReg(R15, 0x20000108)  returns 0x00 (0000ms, 0282ms total)
T46A4 001:317 JLINK_WriteReg(XPSR, 0x01000000)  returns 0x00 (0000ms, 0282ms total)
T46A4 001:317 JLINK_WriteReg(MSP, 0x20000800)  returns 0x00 (0000ms, 0282ms total)
T46A4 001:318 JLINK_WriteReg(PSP, 0x20000800)  returns 0x00 (0000ms, 0282ms total)
T46A4 001:318 JLINK_WriteReg(CFBP, 0x00000000)  returns 0x00 (0000ms, 0282ms total)
T46A4 001:318 JLINK_SetBPEx(Addr = 0x20000000, Type = 0xFFFFFFF2)  returns 0x00000009 (0000ms, 0282ms total)
T46A4 001:318 JLINK_Go() (0004ms, 0286ms total)
T46A4 001:322 JLINK_IsHalted()  returns FALSE (0001ms, 0287ms total)
T46A4 001:337 JLINK_IsHalted() -- CPU_ReadMem(2 bytes @ 0x20000000)  returns TRUE (0021ms, 0307ms total)
T46A4 001:358 JLINK_ReadReg(R15)  returns 0x20000000 (0000ms, 0286ms total)
T46A4 001:358 JLINK_ClrBPEx(BPHandle = 0x00000009)  returns 0x00 (0000ms, 0286ms total)
T46A4 001:358 JLINK_ReadReg(R0)  returns 0x00000000 (0000ms, 0286ms total)
T46A4 001:359 JLINK_WriteMem(0x20000180, 0x0400 Bytes, ...) -- Data:  00 68 40 1C 06 49 08 60 08 46 00 68 31 28 01 DB ... -- CPU_WriteMem(1024 bytes @ 0x20000180)  returns 0x400 (0027ms, 0313ms total)
T46A4 001:386 JLINK_WriteReg(R0, 0x08000800)  returns 0x00 (0000ms, 0313ms total)
T46A4 001:386 JLINK_WriteReg(R1, 0x00000400)  returns 0x00 (0000ms, 0313ms total)
T46A4 001:386 JLINK_WriteReg(R2, 0x20000180)  returns 0x00 (0000ms, 0313ms total)
T46A4 001:386 JLINK_WriteReg(R3, 0x00000000)  returns 0x00 (0000ms, 0313ms total)
T46A4 001:387 JLINK_WriteReg(R4, 0x00000000)  returns 0x00 (0000ms, 0314ms total)
T46A4 001:387 JLINK_WriteReg(R5, 0x00000000)  returns 0x00 (0000ms, 0314ms total)
T46A4 001:387 JLINK_WriteReg(R6, 0x00000000)  returns 0x00 (0000ms, 0314ms total)
T46A4 001:387 JLINK_WriteReg(R7, 0x00000000)  returns 0x00 (0000ms, 0314ms total)
T46A4 001:387 JLINK_WriteReg(R8, 0x00000000)  returns 0x00 (0000ms, 0314ms total)
T46A4 001:387 JLINK_WriteReg(R9, 0x2000017C)  returns 0x00 (0000ms, 0314ms total)
T46A4 001:387 JLINK_WriteReg(R10, 0x00000000)  returns 0x00 (0000ms, 0314ms total)
T46A4 001:387 JLINK_WriteReg(R11, 0x00000000)  returns 0x00 (0000ms, 0314ms total)
T46A4 001:387 JLINK_WriteReg(R12, 0x00000000)  returns 0x00 (0000ms, 0314ms total)
T46A4 001:387 JLINK_WriteReg(R13, 0x20000800)  returns 0x00 (0000ms, 0314ms total)
T46A4 001:387 JLINK_WriteReg(R14, 0x20000001)  returns 0x00 (0000ms, 0314ms total)
T46A4 001:387 JLINK_WriteReg(R15, 0x20000108)  returns 0x00 (0000ms, 0314ms total)
T46A4 001:387 JLINK_WriteReg(XPSR, 0x01000000)  returns 0x00 (0000ms, 0314ms total)
T46A4 001:387 JLINK_WriteReg(MSP, 0x20000800)  returns 0x00 (0000ms, 0314ms total)
T46A4 001:387 JLINK_WriteReg(PSP, 0x20000800)  returns 0x00 (0001ms, 0315ms total)
T46A4 001:388 JLINK_WriteReg(CFBP, 0x00000000)  returns 0x00 (0000ms, 0315ms total)
T46A4 001:388 JLINK_SetBPEx(Addr = 0x20000000, Type = 0xFFFFFFF2)  returns 0x0000000A (0000ms, 0315ms total)
T46A4 001:388 JLINK_Go() (0004ms, 0319ms total)
T46A4 001:392 JLINK_IsHalted()  returns FALSE (0001ms, 0320ms total)
T46A4 001:408 JLINK_IsHalted() -- CPU_ReadMem(2 bytes @ 0x20000000)  returns TRUE (0021ms, 0340ms total)
T46A4 001:429 JLINK_ReadReg(R15)  returns 0x20000000 (0000ms, 0319ms total)
T46A4 001:429 JLINK_ClrBPEx(BPHandle = 0x0000000A)  returns 0x00 (0000ms, 0319ms total)
T46A4 001:429 JLINK_ReadReg(R0)  returns 0x00000000 (0000ms, 0319ms total)
T46A4 001:430 JLINK_WriteMem(0x20000180, 0x0400 Bytes, ...) -- Data:  01 EB 05 11 08 81 7C BD 90 07 00 20 DC 07 00 20 ... -- CPU_WriteMem(1024 bytes @ 0x20000180)  returns 0x400 (0027ms, 0346ms total)
T46A4 001:457 JLINK_WriteReg(R0, 0x08000C00)  returns 0x00 (0000ms, 0346ms total)
T46A4 001:457 JLINK_WriteReg(R1, 0x00000400)  returns 0x00 (0000ms, 0346ms total)
T46A4 001:457 JLINK_WriteReg(R2, 0x20000180)  returns 0x00 (0000ms, 0346ms total)
T46A4 001:457 JLINK_WriteReg(R3, 0x00000000)  returns 0x00 (0000ms, 0346ms total)
T46A4 001:457 JLINK_WriteReg(R4, 0x00000000)  returns 0x00 (0000ms, 0346ms total)
T46A4 001:458 JLINK_WriteReg(R5, 0x00000000)  returns 0x00 (0000ms, 0346ms total)
T46A4 001:458 JLINK_WriteReg(R6, 0x00000000)  returns 0x00 (0000ms, 0346ms total)
T46A4 001:458 JLINK_WriteReg(R7, 0x00000000)  returns 0x00 (0000ms, 0346ms total)
T46A4 001:458 JLINK_WriteReg(R8, 0x00000000)  returns 0x00 (0000ms, 0346ms total)
T46A4 001:458 JLINK_WriteReg(R9, 0x2000017C)  returns 0x00 (0000ms, 0346ms total)
T46A4 001:458 JLINK_WriteReg(R10, 0x00000000)  returns 0x00 (0000ms, 0346ms total)
T46A4 001:458 JLINK_WriteReg(R11, 0x00000000)  returns 0x00 (0000ms, 0346ms total)
T46A4 001:458 JLINK_WriteReg(R12, 0x00000000)  returns 0x00 (0000ms, 0346ms total)
T46A4 001:458 JLINK_WriteReg(R13, 0x20000800)  returns 0x00 (0000ms, 0346ms total)
T46A4 001:458 JLINK_WriteReg(R14, 0x20000001)  returns 0x00 (0000ms, 0346ms total)
T46A4 001:458 JLINK_WriteReg(R15, 0x20000108)  returns 0x00 (0000ms, 0346ms total)
T46A4 001:458 JLINK_WriteReg(XPSR, 0x01000000)  returns 0x00 (0000ms, 0346ms total)
T46A4 001:458 JLINK_WriteReg(MSP, 0x20000800)  returns 0x00 (0000ms, 0346ms total)
T46A4 001:458 JLINK_WriteReg(PSP, 0x20000800)  returns 0x00 (0000ms, 0346ms total)
T46A4 001:458 JLINK_WriteReg(CFBP, 0x00000000)  returns 0x00 (0000ms, 0346ms total)
T46A4 001:458 JLINK_SetBPEx(Addr = 0x20000000, Type = 0xFFFFFFF2)  returns 0x0000000B (0001ms, 0347ms total)
T46A4 001:459 JLINK_Go() (0004ms, 0351ms total)
T46A4 001:463 JLINK_IsHalted()  returns FALSE (0001ms, 0352ms total)
T46A4 001:479 JLINK_IsHalted() -- CPU_ReadMem(2 bytes @ 0x20000000)  returns TRUE (0021ms, 0372ms total)
T46A4 001:500 JLINK_ReadReg(R15)  returns 0x20000000 (0000ms, 0351ms total)
T46A4 001:500 JLINK_ClrBPEx(BPHandle = 0x0000000B)  returns 0x00 (0000ms, 0351ms total)
T46A4 001:500 JLINK_ReadReg(R0)  returns 0x00000000 (0000ms, 0351ms total)
T46A4 001:501 JLINK_WriteMem(0x20000180, 0x0400 Bytes, ...) -- Data:  B0 F9 0A 00 03 44 52 1C 49 1C FF 29 E1 DD 93 FB ... -- CPU_WriteMem(1024 bytes @ 0x20000180)  returns 0x400 (0027ms, 0378ms total)
T46A4 001:528 JLINK_WriteReg(R0, 0x08001000)  returns 0x00 (0000ms, 0378ms total)
T46A4 001:528 JLINK_WriteReg(R1, 0x00000400)  returns 0x00 (0000ms, 0378ms total)
T46A4 001:528 JLINK_WriteReg(R2, 0x20000180)  returns 0x00 (0001ms, 0379ms total)
T46A4 001:529 JLINK_WriteReg(R3, 0x00000000)  returns 0x00 (0000ms, 0379ms total)
T46A4 001:529 JLINK_WriteReg(R4, 0x00000000)  returns 0x00 (0000ms, 0379ms total)
T46A4 001:529 JLINK_WriteReg(R5, 0x00000000)  returns 0x00 (0000ms, 0379ms total)
T46A4 001:529 JLINK_WriteReg(R6, 0x00000000)  returns 0x00 (0000ms, 0379ms total)
T46A4 001:529 JLINK_WriteReg(R7, 0x00000000)  returns 0x00 (0000ms, 0379ms total)
T46A4 001:529 JLINK_WriteReg(R8, 0x00000000)  returns 0x00 (0000ms, 0379ms total)
T46A4 001:529 JLINK_WriteReg(R9, 0x2000017C)  returns 0x00 (0000ms, 0379ms total)
T46A4 001:529 JLINK_WriteReg(R10, 0x00000000)  returns 0x00 (0000ms, 0379ms total)
T46A4 001:529 JLINK_WriteReg(R11, 0x00000000)  returns 0x00 (0000ms, 0379ms total)
T46A4 001:529 JLINK_WriteReg(R12, 0x00000000)  returns 0x00 (0000ms, 0379ms total)
T46A4 001:529 JLINK_WriteReg(R13, 0x20000800)  returns 0x00 (0000ms, 0379ms total)
T46A4 001:529 JLINK_WriteReg(R14, 0x20000001)  returns 0x00 (0000ms, 0379ms total)
T46A4 001:529 JLINK_WriteReg(R15, 0x20000108)  returns 0x00 (0000ms, 0379ms total)
T46A4 001:529 JLINK_WriteReg(XPSR, 0x01000000)  returns 0x00 (0000ms, 0379ms total)
T46A4 001:530 JLINK_WriteReg(MSP, 0x20000800)  returns 0x00 (0000ms, 0380ms total)
T46A4 001:530 JLINK_WriteReg(PSP, 0x20000800)  returns 0x00 (0000ms, 0380ms total)
T46A4 001:530 JLINK_WriteReg(CFBP, 0x00000000)  returns 0x00 (0000ms, 0380ms total)
T46A4 001:530 JLINK_SetBPEx(Addr = 0x20000000, Type = 0xFFFFFFF2)  returns 0x0000000C (0000ms, 0380ms total)
T46A4 001:530 JLINK_Go() (0004ms, 0384ms total)
T46A4 001:534 JLINK_IsHalted()  returns FALSE (0001ms, 0385ms total)
T46A4 001:547 JLINK_IsHalted() -- CPU_ReadMem(2 bytes @ 0x20000000)  returns TRUE (0021ms, 0405ms total)
T46A4 001:568 JLINK_ReadReg(R15)  returns 0x20000000 (0000ms, 0384ms total)
T46A4 001:568 JLINK_ClrBPEx(BPHandle = 0x0000000C)  returns 0x00 (0000ms, 0384ms total)
T46A4 001:568 JLINK_ReadReg(R0)  returns 0x00000000 (0000ms, 0384ms total)
T46A4 001:569 JLINK_WriteMem(0x20000180, 0x0400 Bytes, ...) -- Data:  01 FB 12 00 30 30 40 B2 03 49 48 72 70 47 00 00 ... -- CPU_WriteMem(1024 bytes @ 0x20000180)  returns 0x400 (0027ms, 0411ms total)
T46A4 001:596 JLINK_WriteReg(R0, 0x08001400)  returns 0x00 (0000ms, 0411ms total)
T46A4 001:596 JLINK_WriteReg(R1, 0x00000400)  returns 0x00 (0000ms, 0411ms total)
T46A4 001:596 JLINK_WriteReg(R2, 0x20000180)  returns 0x00 (0000ms, 0411ms total)
T46A4 001:596 JLINK_WriteReg(R3, 0x00000000)  returns 0x00 (0001ms, 0412ms total)
T46A4 001:597 JLINK_WriteReg(R4, 0x00000000)  returns 0x00 (0000ms, 0412ms total)
T46A4 001:597 JLINK_WriteReg(R5, 0x00000000)  returns 0x00 (0000ms, 0412ms total)
T46A4 001:597 JLINK_WriteReg(R6, 0x00000000)  returns 0x00 (0000ms, 0412ms total)
T46A4 001:597 JLINK_WriteReg(R7, 0x00000000)  returns 0x00 (0000ms, 0412ms total)
T46A4 001:597 JLINK_WriteReg(R8, 0x00000000)  returns 0x00 (0000ms, 0412ms total)
T46A4 001:597 JLINK_WriteReg(R9, 0x2000017C)  returns 0x00 (0000ms, 0412ms total)
T46A4 001:597 JLINK_WriteReg(R10, 0x00000000)  returns 0x00 (0000ms, 0412ms total)
T46A4 001:597 JLINK_WriteReg(R11, 0x00000000)  returns 0x00 (0000ms, 0412ms total)
T46A4 001:597 JLINK_WriteReg(R12, 0x00000000)  returns 0x00 (0000ms, 0412ms total)
T46A4 001:597 JLINK_WriteReg(R13, 0x20000800)  returns 0x00 (0000ms, 0412ms total)
T46A4 001:597 JLINK_WriteReg(R14, 0x20000001)  returns 0x00 (0000ms, 0412ms total)
T46A4 001:597 JLINK_WriteReg(R15, 0x20000108)  returns 0x00 (0000ms, 0412ms total)
T46A4 001:597 JLINK_WriteReg(XPSR, 0x01000000)  returns 0x00 (0000ms, 0412ms total)
T46A4 001:597 JLINK_WriteReg(MSP, 0x20000800)  returns 0x00 (0001ms, 0413ms total)
T46A4 001:598 JLINK_WriteReg(PSP, 0x20000800)  returns 0x00 (0000ms, 0413ms total)
T46A4 001:598 JLINK_WriteReg(CFBP, 0x00000000)  returns 0x00 (0000ms, 0413ms total)
T46A4 001:598 JLINK_SetBPEx(Addr = 0x20000000, Type = 0xFFFFFFF2)  returns 0x0000000D (0000ms, 0413ms total)
T46A4 001:598 JLINK_Go() (0004ms, 0417ms total)
T46A4 001:602 JLINK_IsHalted()  returns FALSE (0001ms, 0418ms total)
T46A4 001:614 JLINK_IsHalted() -- CPU_ReadMem(2 bytes @ 0x20000000)  returns TRUE (0021ms, 0438ms total)
T46A4 001:635 JLINK_ReadReg(R15)  returns 0x20000000 (0000ms, 0417ms total)
T46A4 001:635 JLINK_ClrBPEx(BPHandle = 0x0000000D)  returns 0x00 (0000ms, 0417ms total)
T46A4 001:635 JLINK_ReadReg(R0)  returns 0x00000000 (0000ms, 0417ms total)
